
**** 10/21/17 13:47:03 ***** PSpice 16.6.0 (October 2012) ***** ID# 0 ********

 ** Profile: "CHAIN-w_sweep"  [ C:\USERS\KATERINA\DESKTOP\SYNODEUTIKO_YLIKO\INVERTERS\CHAIN\22nm\chain_22-pspicefiles\chain\w_sweep.s


 ****     CIRCUIT DESCRIPTION


******************************************************************************




** Creating circuit file "w_sweep.cir" 
** WARNING: THIS AUTOMATICALLY GENERATED FILE MAY BE OVERWRITTEN BY SUBSEQUENT SIMULATIONS

*Libraries: 
* Profile Libraries :
* Local Libraries :
.LIB "C:/Users/katerina/Desktop/synodeutiko_yliko/ptm_library/PTM_Models.lib" 
* From [PSPICE NETLIST] section of C:\Users\katerina\AppData\Roaming\SPB_Data\cdssetup\OrCAD_PSpice/16.6.0/PSpice.ini file:
.lib "nom.lib" 

*Analysis directives: 
.TRAN  0 2ns 0 
.STEP LIN PARAM n_size_w 200nm 600nm 100nm 
.OPTIONS ADVCONV
.PROBE64 V(alias(*)) I(alias(*)) W(alias(*)) D(alias(*)) NOISE(alias(*)) 
.INC "..\CHAIN.net" 



**** INCLUDING CHAIN.net ****
* source CHAIN_22
C_C1         0 OUTPUT  1f  TC=0,0 
V_A         INPUT 0  
+PULSE 0 {vdd_nominal} 0 70p 10p 0.5n 1n
V_Vin         N00124 0 {vdd_nominal}
M_not_1_M2         N05076 INPUT 0 0 nMOS_22nm_PTM  
+ L={n_size_l}  
+ W={n_size_w}         
M_not_1_M1         N05076 INPUT N00124 N00124 pMOS_22nm_PTM  
+ L={p_size_l}  
+ W={p_size_w}         
M_not_2_M2         N05080 N05076 0 0 nMOS_22nm_PTM  
+ L={n_size_l}  
+ W={n_size_w}         
M_not_2_M1         N05080 N05076 N00124 N00124 pMOS_22nm_PTM  
+ L={p_size_l}  
+ W={p_size_w}         
M_not_3_M2         N05084 N05080 0 0 nMOS_22nm_PTM  
+ L={n_size_l}  
+ W={n_size_w}         
M_not_3_M1         N05084 N05080 N00124 N00124 pMOS_22nm_PTM  
+ L={p_size_l}  
+ W={p_size_w}         
M_not_4_M2         N05088 N05084 0 0 nMOS_22nm_PTM  
+ L={n_size_l}  
+ W={n_size_w}         
M_not_4_M1         N05088 N05084 N00124 N00124 pMOS_22nm_PTM  
+ L={p_size_l}  
+ W={p_size_w}         
M_not_5_M2         N05100 N05088 0 0 nMOS_22nm_PTM  
+ L={n_size_l}  
+ W={n_size_w}         
M_not_5_M1         N05100 N05088 N00124 N00124 pMOS_22nm_PTM  
+ L={p_size_l}  
+ W={p_size_w}         
M_not_6_M2         N05096 N05100 0 0 nMOS_22nm_PTM  
+ L={n_size_l}  
+ W={n_size_w}         
M_not_6_M1         N05096 N05100 N00124 N00124 pMOS_22nm_PTM  
+ L={p_size_l}  
+ W={p_size_w}         
M_not_7_M2         N05092 N05096 0 0 nMOS_22nm_PTM  
+ L={n_size_l}  
+ W={n_size_w}         
M_not_7_M1         N05092 N05096 N00124 N00124 pMOS_22nm_PTM  
+ L={p_size_l}  
+ W={p_size_w}         
M_not_8_M2         N05067 N05092 0 0 nMOS_22nm_PTM  
+ L={n_size_l}  
+ W={n_size_w}         
M_not_8_M1         N05067 N05092 N00124 N00124 pMOS_22nm_PTM  
+ L={p_size_l}  
+ W={p_size_w}         
M_not_9_M2         N05063 N05067 0 0 nMOS_22nm_PTM  
+ L={n_size_l}  
+ W={n_size_w}         
M_not_9_M1         N05063 N05067 N00124 N00124 pMOS_22nm_PTM  
+ L={p_size_l}  
+ W={p_size_w}         
M_not_10_M2         OUTPUT N05063 0 0 nMOS_22nm_PTM  
+ L={n_size_l}  
+ W={n_size_w}         
M_not_10_M1         OUTPUT N05063 N00124 N00124 pMOS_22nm_PTM  
+ L={p_size_l}  
+ W={p_size_w}         
.PARAM  n_size_l=30nm p_to_n_ratio=1 p_size_w={ p_to_n_ratio * n_size_w }
+  n_size_w=400nm p_size_l={n_size_l} vdd_nominal=0.95

**** RESUMING w_sweep.cir ****
.END

**** 10/21/17 13:47:03 ***** PSpice 16.6.0 (October 2012) ***** ID# 0 ********

 ** Profile: "CHAIN-w_sweep"  [ C:\USERS\KATERINA\DESKTOP\SYNODEUTIKO_YLIKO\INVERTERS\CHAIN\22nm\chain_22-pspicefiles\chain\w_sweep.s


 ****     MOSFET MODEL PARAMETERS


******************************************************************************




               nMOS_22nm_PTM   pMOS_22nm_PTM   
               NMOS            PMOS            
  T_Measured   27              27            
   T_Current   27              27            
       LEVEL    5               5            
           L   30.000000E-09   30.000000E-09 
           W   30.000000E-09   30.000000E-09 
         VTO     .98666         -.98666      
          KP   42.000000E-06   42.000000E-06 
       GAMMA    1               1            
         PHI     .7              .7          
      LAMBDA     .5              .5          
         RSH    5               5            
          IS   10.000000E-15   10.000000E-15 
          JS    0               0            
          PB     .8              .8          
        PBSW     .8              .8          
          CJ    0               0            
        CJSW    0               0            
        CGSO   65.000000E-12   65.000000E-12 
        CGDO   65.000000E-12   65.000000E-12 
        CGBO   25.600000E-12   25.600000E-12 
         TOX  100.000000E-09  100.000000E-09 
          XJ    7.200000E-09    7.200000E-09 
       DELTA     .01             .01         
      DIOMOD    1               1            
         VFB    -.55            -.55         
          K1     .4              .4          
          K2    0               -.01         
        LETA     .1              .1          
        WETA     .25             .25         
          U0     .035            .011        
        TEMP    0               0            
         VDD    5               5            
       XPART    0               0            
        VTH0     .68858         -.63745      
          K3    0               0            
        DVT0    1               1            
        DVT1    2               2            
          UA  600.000000E-12    2.000000E-09 
          UB    1.200000E-18  500.000000E-21 
          UC    0               0            
        VSAT  170.000000E+03  170.000000E+03 
        RDSW  180             230            
        VOFF    -.1092          -.09         
     NFACTOR    1.6             1.8          
        CDSC    0               0            
        PCLM     .02             .12         
      PDIBL1    1.000000E-03    1.000000E-03 
      PDIBL2    1.000000E-03    1.000000E-03 
       DROUT     .5                          
      PSCBE1  814.000000E+06  814.000000E+06 
      PSCBE2  100.000000E-09  958.000000E-09 
          A0    1               1            
          A1    0               0            
          A2    1               1            
         UA1    4.310000E-09    4.310000E-09 
         UB1    7.610000E-18    7.610000E-18 
         UC1  -56.000000E-12  -56.000000E-12 
        PVAG   10.000000E-21   10.000000E-21 
        KETA     .04                         
        ETA0     .0105           .0105       
        ETAB    0               0            
        DVT2    0                            
        DSUB     .1              .1          
       NGATE  100.000000E+21  100.000000E+21 
      MOBMOD    0               0            
         AGS                   10.000000E-21 
       DVT1W    0               0            
       DVT2W    0               0            
        PRWG    0               0            
     PDIBLCB   -5.000000E-03   34.000000E-09 
      ALPHA0     .074            .074        
        CGSL  265.300000E-12  265.300000E-12 
        CGDL  265.300000E-12  265.300000E-12 
        WINT    5.000000E-09    5.000000E-09 
    PARAMCHK    1               1            
     VERSION    4               4            
      ALPHA1    5.000000E-03    5.000000E-03 
        TOXM    1.400000E-09    1.420000E-09 
         TPB    5.000000E-03    5.000000E-03 
         TCJ    1.000000E-03    1.000000E-03 
       TPBSW    5.000000E-03    5.000000E-03 
       TCJSW    1.000000E-03    1.000000E-03 
      TPBSWG    5.000000E-03    5.000000E-03 
      TCJSWG    1.000000E-03    1.000000E-03 
        NOFF     .9              .9          
      VOFFCV     .02             .02         
         COX  700.000000E-06  700.000000E-06 
          E0    1.000000E+12    1.000000E+12 
    rbodyMod    1               1            
    rgateMod    1               1            
      geoMod    1               1            
      igcMod    1               1            
      igbMod    1               1            
        toxe    1.400000E-09    1.400000E-09 
        toxp    1.100000E-09    1.080000E-09 
        dtox  300.000000E-12  320.000000E-12 
        ndep    5.500000E+18    4.400000E+18 
         nsd  200.000000E+18  200.000000E+18 
       dvtp0   10.000000E-12   10.000000E-12 
       dvtp1     .1              .05         
        lpe0    0               0            
        minv     .05             .05         
         rsw   75              72.5          
         rdw   75              72.5          
      fprout     .2              .2          
       pdits     .01             .08         
      pditsd     .23             .23         
      pditsl    2.300000E+06    2.300000E+06 
       agidl  200.000000E-06  200.000000E-06 
       bgidl    2.100000E+09    2.100000E+09 
       cgidl  200.000000E-06  200.000000E-06 
        aigc     .015211        9.700000E-03 
        bigc    2.743200E-03    1.250000E-03 
        cigc    2.000000E-03  800.000000E-06 
       aigsd     .015211        9.700000E-03 
       bigsd    2.743200E-03    1.250000E-03 
       cigsd    2.000000E-03  800.000000E-06 
     aigbacc     .012            .012        
     bigbacc    2.800000E-03    2.800000E-03 
     cigbacc    2.000000E-03    2.000000E-03 
     aigbinv     .014            .014        
     bigbinv    4.000000E-03    4.000000E-03 
     cigbinv    4.000000E-03    4.000000E-03 
      xrcrg2    5               5            
      toxref    1.400000E-09    1.420000E-09 
    ijthdfwd     .01             .01         
    ijthsfwd     .01             .01         
    ijthdrev    1.000000E-03    1.000000E-03 
    ijthsrev    1.000000E-03    1.000000E-03 
       gbmin  100.000000E-12  100.000000E-12 
        rbdb   15              15            
        rbsb   15              15            
        rbpb    5               5            
        rbps   15              15            
        rbpd   15              15            
     ckappas     .03             .03         
     ckappad     .03             .03         
         dwj    0               0            
        rshg     .4              .4          
      CJSWGD  500.000000E-12  500.000000E-12 
      PBSWGD    1               1            
      MJSWGD     .33             .33         
      CJSWGS  300.000000E-12  300.000000E-12 
      PBSWGS    1               1            
      MJSWGS     .33             .33         
        JSWS   10.000000E-12   10.000000E-12 
       JSWGS  100.000000E-12  100.000000E-12 
        JSWD   10.000000E-12   10.000000E-12 
       JSWGD  100.000000E-12  100.000000E-12 


Model-Specific Temperatures During Sweep  Param value = 2e-007

**** 10/21/17 13:47:03 ***** PSpice 16.6.0 (October 2012) ***** ID# 0 ********

 ** Profile: "CHAIN-w_sweep"  [ C:\USERS\KATERINA\DESKTOP\SYNODEUTIKO_YLIKO\INVERTERS\CHAIN\22nm\chain_22-pspicefiles\chain\w_sweep.s


 ****     INITIAL TRANSIENT SOLUTION       TEMPERATURE =   27.000 DEG C

 ****     CURRENT STEP                     PARAM N_SIZE_W =  200.0000E-09


******************************************************************************



 NODE   VOLTAGE     NODE   VOLTAGE     NODE   VOLTAGE     NODE   VOLTAGE


(INPUT)    0.0000  (N00124)     .9500 (N05063)     .9499 (N05067) 56.18E-06     

(N05076)     .9499 (N05080) 56.18E-06 (N05084)     .9499 (N05088) 56.18E-06     

(N05092)     .9499 (N05096) 56.18E-06 (N05100)     .9499 (OUTPUT) 56.18E-06 




    VOLTAGE SOURCE CURRENTS
    NAME         CURRENT

    V_A          0.000E+00
    V_Vin       -2.378E-08

    TOTAL POWER DISSIPATION   2.26E-08  WATTS


Model-Specific Temperatures During Sweep  Param value = 3e-007

**** 10/21/17 13:47:03 ***** PSpice 16.6.0 (October 2012) ***** ID# 0 ********

 ** Profile: "CHAIN-w_sweep"  [ C:\USERS\KATERINA\DESKTOP\SYNODEUTIKO_YLIKO\INVERTERS\CHAIN\22nm\chain_22-pspicefiles\chain\w_sweep.s


 ****     INITIAL TRANSIENT SOLUTION       TEMPERATURE =   27.000 DEG C

 ****     CURRENT STEP                     PARAM N_SIZE_W =  300.0000E-09


******************************************************************************



 NODE   VOLTAGE     NODE   VOLTAGE     NODE   VOLTAGE     NODE   VOLTAGE


(INPUT)    0.0000  (N00124)     .9500 (N05063)     .9498 (N05067) 175.3E-06     

(N05076)     .9498 (N05080) 175.3E-06 (N05084)     .9498 (N05088) 175.3E-06     

(N05092)     .9498 (N05096) 175.3E-06 (N05100)     .9498 (OUTPUT) 175.3E-06 




    VOLTAGE SOURCE CURRENTS
    NAME         CURRENT

    V_A          0.000E+00
    V_Vin       -1.856E-07

    TOTAL POWER DISSIPATION   1.76E-07  WATTS


Model-Specific Temperatures During Sweep  Param value = 4e-007

**** 10/21/17 13:47:03 ***** PSpice 16.6.0 (October 2012) ***** ID# 0 ********

 ** Profile: "CHAIN-w_sweep"  [ C:\USERS\KATERINA\DESKTOP\SYNODEUTIKO_YLIKO\INVERTERS\CHAIN\22nm\chain_22-pspicefiles\chain\w_sweep.s


 ****     INITIAL TRANSIENT SOLUTION       TEMPERATURE =   27.000 DEG C

 ****     CURRENT STEP                     PARAM N_SIZE_W =  400.0000E-09


******************************************************************************



 NODE   VOLTAGE     NODE   VOLTAGE     NODE   VOLTAGE     NODE   VOLTAGE


(INPUT)    0.0000  (N00124)     .9500 (N05063)     .9497 (N05067) 331.3E-06     

(N05076)     .9497 (N05080) 331.2E-06 (N05084)     .9497 (N05088) 331.3E-06     

(N05092)     .9497 (N05096) 331.3E-06 (N05100)     .9497 (OUTPUT) 331.3E-06 




    VOLTAGE SOURCE CURRENTS
    NAME         CURRENT

    V_A          0.000E+00
    V_Vin       -5.738E-07

    TOTAL POWER DISSIPATION   5.45E-07  WATTS


Model-Specific Temperatures During Sweep  Param value = 5e-007

**** 10/21/17 13:47:03 ***** PSpice 16.6.0 (October 2012) ***** ID# 0 ********

 ** Profile: "CHAIN-w_sweep"  [ C:\USERS\KATERINA\DESKTOP\SYNODEUTIKO_YLIKO\INVERTERS\CHAIN\22nm\chain_22-pspicefiles\chain\w_sweep.s


 ****     INITIAL TRANSIENT SOLUTION       TEMPERATURE =   27.000 DEG C

 ****     CURRENT STEP                     PARAM N_SIZE_W =  500.0000E-09


******************************************************************************



 NODE   VOLTAGE     NODE   VOLTAGE     NODE   VOLTAGE     NODE   VOLTAGE


(INPUT)    0.0000  (N00124)     .9500 (N05063)     .9495 (N05067) 480.8E-06     

(N05076)     .9495 (N05080) 480.7E-06 (N05084)     .9495 (N05088) 480.8E-06     

(N05092)     .9495 (N05096) 480.8E-06 (N05100)     .9495 (OUTPUT) 480.8E-06 




    VOLTAGE SOURCE CURRENTS
    NAME         CURRENT

    V_A          0.000E+00
    V_Vin       -1.162E-06

    TOTAL POWER DISSIPATION   1.10E-06  WATTS


Model-Specific Temperatures During Sweep  Param value = 6e-007

**** 10/21/17 13:47:03 ***** PSpice 16.6.0 (October 2012) ***** ID# 0 ********

 ** Profile: "CHAIN-w_sweep"  [ C:\USERS\KATERINA\DESKTOP\SYNODEUTIKO_YLIKO\INVERTERS\CHAIN\22nm\chain_22-pspicefiles\chain\w_sweep.s


 ****     INITIAL TRANSIENT SOLUTION       TEMPERATURE =   27.000 DEG C

 ****     CURRENT STEP                     PARAM N_SIZE_W =  600.0000E-09


******************************************************************************



 NODE   VOLTAGE     NODE   VOLTAGE     NODE   VOLTAGE     NODE   VOLTAGE


(INPUT)    0.0000  (N00124)     .9500 (N05063)     .9494 (N05067) 603.2E-06     

(N05076)     .9494 (N05080) 602.9E-06 (N05084)     .9494 (N05088) 603.2E-06     

(N05092)     .9494 (N05096) 603.2E-06 (N05100)     .9494 (OUTPUT) 603.2E-06 




    VOLTAGE SOURCE CURRENTS
    NAME         CURRENT

    V_A          0.000E+00
    V_Vin       -1.874E-06

    TOTAL POWER DISSIPATION   1.78E-06  WATTS



          JOB CONCLUDED

**** 10/21/17 13:47:03 ***** PSpice 16.6.0 (October 2012) ***** ID# 0 ********

 ** Profile: "CHAIN-w_sweep"  [ C:\USERS\KATERINA\DESKTOP\SYNODEUTIKO_YLIKO\INVERTERS\CHAIN\22nm\chain_22-pspicefiles\chain\w_sweep.s


 ****     JOB STATISTICS SUMMARY

 ****     CURRENT STEP                     PARAM N_SIZE_W =  600.0000E-09


******************************************************************************



  Total job time (using Solver 1)   =         .19
